CN,,1999
8,6A,2D
1,V L1-N (TT A - 3xV),,5,V,1.31711558955855046e+00,-1.15052654363418696e+02,0.000000e+00,-99999,99998,1.500000e+05,1.000000e+02,P
2,V L2-N (TT A - 3xV),,6,V,1.22978613172849927e+00,6.72113524851738475e-01,0.000000e+00,-99999,99998,1.500000e+05,1.000000e+02,P
3,V L3-N (TT A - 3xV),,7,V,1.22973011205885863e+00,2.49741815662127919e+00,0.000000e+00,-99999,99998,1.500000e+05,1.000000e+02,P
4,I L1 (TC A - 3xI),,1,A,7.67932566199186310e-03,7.99261682347560054e+00,0.000000e+00,-99999,99998,6.000000e+02,5.000000e+00,P
5,I L2 (TC A - 3xI),,2,A,6.13782772033938905e-03,6.40045927946073334e+00,0.000000e+00,-99999,99998,6.000000e+02,5.000000e+00,P
6,I L3 (TC A - 3xI),,3,A,2.17300653308627745e-02,-2.58051750063968939e+01,0.000000e+00,-99999,99998,6.000000e+02,5.000000e+00,P
1,Disparo - IP A,,,0
2,Cierre - IP A,,,0
50.0
1
5000.000000,4000
18/11/2022,17:00:48.174113
18/11/2022,17:00:48.492313
ASCII
1.000000
0000000001,0000000000,002752,-87996,085145,-16403,012127,002895,0,0
0000000002,0000000200,008606,-90804,081680,-16581,011187,003225,0,0
0000000003,0000000400,014427,-93257,077897,-16693,010195,003545,0,0
0000000004,0000000600,020194,-95339,073807,-16748,009160,003857,0,0
0000000005,0000000800,025878,-97044,069422,-16739,008086,004156,0,0
0000000006,0000001000,031463,-98369,064768,-16666,006975,004445,0,0
0000000007,0000001200,036923,-99306,059855,-16535,005831,004720,0,0
0000000008,0000001400,042236,-99849,054706,-16339,004662,004983,0,0
0000000009,0000001600,047384,-99999,049341,-16086,003469,005230,0,0
0000000010,0000001800,052347,-99754,043781,-15772,002260,005462,0,0
0000000011,0000002000,057101,-99113,038050,-15402,001037,005675,0,0
0000000012,0000002200,061633,-98085,032169,-14972,-00192,005871,0,0
0000000013,0000002400,065921,-96669,026160,-14490,-01428,006048,0,0
0000000014,0000002600,069946,-94868,020048,-13953,-02661,006206,0,0
0000000015,0000002800,073700,-92696,013856,-13364,-03888,006347,0,0
0000000016,0000003000,077161,-90159,007609,-12729,-05103,006466,0,0
0000000017,0000003200,080316,-87263,001334,-12049,-06305,006563,0,0
0000000018,0000003400,083158,-84025,-04948,-11322,-07483,006640,0,0
0000000019,0000003600,085672,-80455,-11211,-10556,-08637,006695,0,0
0000000020,0000003800,087845,-76567,-17427,-09751,-09760,006728,0,0
0000000021,0000004000,089676,-72377,-23576,-08914,-10849,006740,0,0
0000000022,0000004200,091150,-67900,-29631,-08045,-11899,006728,0,0
0000000023,0000004400,092264,-63157,-35573,-07147,-12906,006698,0,0
0000000024,0000004600,093018,-58164,-41371,-06226,-13867,006643,0,0
0000000025,0000004800,093403,-52940,-47005,-05286,-14777,006566,0,0
0000000026,0000005000,093421,-47511,-52455,-04327,-15631,006469,0,0
0000000027,0000005200,093067,-41889,-57698,-03357,-16431,006353,0,0
0000000028,0000005400,092350,-36106,-62712,-02374,-17169,006212,0,0
0000000029,0000005600,091266,-30179,-67482,-01389,-17844,006057,0,0
0000000030,0000005800,089826,-24134,-71983,-00403,-18451,005880,0,0
0000000031,0000006000,088028,-17993,-76201,000582,-18988,005685,0,0
0000000032,0000006200,085886,-11780,-80116,001558,-19458,005471,0,0
0000000033,0000006400,083402,-05521,-83717,002526,-19852,005239,0,0
0000000034,0000006600,080591,000759,-86986,003481,-20172,004992,0,0
0000000035,0000006800,077463,007036,-89912,004415,-20420,004732,0,0
0000000036,0000007000,074030,013287,-92485,005331,-20587,004458,0,0
0000000037,0000007200,070303,019482,-94692,006219,-20679,004168,0,0
0000000038,0000007400,066299,025604,-96526,007079,-20694,003869,0,0
0000000039,0000007600,062036,031622,-97978,007909,-20633,003557,0,0
0000000040,0000007800,057526,037518,-99043,008703,-20493,003237,0,0
0000000041,0000008000,052792,043264,-99718,009457,-20273,002910,0,0
0000000042,0000008200,047848,048840,-99999,010171,-19980,002575,0,0
0000000043,0000008400,042715,054220,-99886,010839,-19614,002236,0,0
0000000044,0000008600,037414,059390,-99376,011462,-19171,001891,0,0
0000000045,0000008800,031967,064325,-98479,012032,-18659,001543,0,0
0000000046,0000009000,026394,069006,-97188,012554,-18079,001195,0,0
0000000047,0000009200,020718,073413,-95515,013021,-17429,000844,0,0
0000000048,0000009400,014959,077533,-93468,013433,-16715,000499,0,0
0000000049,0000009600,009142,081345,-91051,013790,-15940,000155,0,0
0000000050,0000009800,003289,084836,-88274,014086,-15103,-00186,0,0
0000000051,0000010000,-02576,087995,-85149,014321,-14215,-00522,0,0
0000000052,0000010200,-08432,090802,-81685,014498,-13272,-00848,0,0
0000000053,0000010400,-14252,093256,-77901,014614,-12280,-01169,0,0
0000000054,0000010600,-20017,095337,-73811,014666,-11246,-01480,0,0
0000000055,0000010800,-25702,097043,-69426,014657,-10172,-01782,0,0
0000000056,0000011000,-31287,098368,-64772,014587,-09061,-02069,0,0
0000000057,0000011200,-36747,099305,-59859,014452,-07916,-02347,0,0
0000000058,0000011400,-42063,099848,-54710,014260,-06748,-02606,0,0
0000000059,0000011600,-47211,099997,-49345,014004,-05554,-02853,0,0
0000000060,0000011800,-52171,099753,-43785,013692,-04346,-03085,0,0
0000000061,0000012000,-56928,099112,-38054,013320,-03122,-03299,0,0
0000000062,0000012200,-61457,098084,-32173,012890,-01892,-03497,0,0
0000000063,0000012400,-65745,096668,-26164,012408,-00656,-03674,0,0
0000000064,0000012600,-69773,094867,-20052,011871,000576,-03833,0,0
0000000065,0000012800,-73524,092694,-13860,011285,001803,-03970,0,0
0000000066,0000013000,-76985,090158,-07613,010647,003017,-04089,0,0
0000000067,0000013200,-80143,087262,-01338,009966,004220,-04187,0,0
0000000068,0000013400,-82985,084024,004944,009240,005398,-04263,0,0
0000000069,0000013600,-85496,080454,011207,008474,006551,-04318,0,0
0000000070,0000013800,-87672,076566,017423,007671,007674,-04352,0,0
0000000071,0000014000,-89500,072376,023572,006832,008764,-04364,0,0
0000000072,0000014200,-90974,067899,029627,005962,009814,-04355,0,0
0000000073,0000014400,-92091,063156,035569,005065,010821,-04321,0,0
0000000074,0000014600,-92842,058163,041367,004143,011782,-04266,0,0
0000000075,0000014800,-93230,052939,047001,003203,012691,-04190,0,0
0000000076,0000015000,-93245,047509,052451,002245,013546,-04096,0,0
0000000077,0000015200,-92894,041888,057694,001275,014346,-03977,0,0
0000000078,0000015400,-92174,036105,062708,000295,015084,-03839,0,0
0000000079,0000015600,-91093,030178,067478,-00690,015755,-03680,0,0
0000000080,0000015800,-89650,024133,071979,-01678,016366,-03503,0,0
0000000081,0000016000,-87852,017992,076197,-02661,016903,-03308,0,0
0000000082,0000016200,-85710,011779,080112,-03641,017373,-03095,0,0
0000000083,0000016400,-83229,005520,083713,-04608,017767,-02866,0,0
0000000084,0000016600,-80418,-00760,086982,-05560,018087,-02618,0,0
0000000085,0000016800,-77287,-07038,089908,-06497,018334,-02356,0,0
0000000086,0000017000,-73854,-13288,092481,-07413,018502,-02081,0,0
0000000087,0000017200,-70127,-19483,094687,-08301,018594,-01794,0,0
0000000088,0000017400,-66127,-25605,096522,-09162,018609,-01492,0,0
0000000089,0000017600,-61860,-31623,097974,-09989,018545,-01181,0,0
0000000090,0000017800,-57353,-37519,099039,-10782,018407,-00864,0,0
0000000091,0000018000,-52616,-43265,099714,-11539,018188,-00534,0,0
0000000092,0000018200,-47672,-48841,099994,-12250,017895,-00198,0,0
0000000093,0000018400,-42542,-54221,099882,-12921,017529,000139,0,0
0000000094,0000018600,-37241,-59391,099372,-13541,017086,000484,0,0
0000000095,0000018800,-31794,-64326,098475,-14115,016573,000832,0,0
0000000096,0000019000,-26221,-69007,097184,-14636,015994,001180,0,0
0000000097,0000019200,-20542,-73414,095512,-15103,015343,001528,0,0
0000000098,0000019400,-14783,-77534,093464,-15515,014629,001876,0,0
0000000099,0000019600,-08966,-81346,091047,-15869,013854,002221,0,0
0000000100,0000019800,-03113,-84837,088270,-16165,013018,002559,0,0
0000000101,0000020000,002752,-87996,085145,-16403,012127,002895,0,0
0000000102,0000020200,008605,-90803,081681,-16580,011187,003225,0,0
0000000103,0000020400,014428,-93257,077897,-16693,010195,003545,0,0
0000000104,0000020600,020193,-95338,073807,-16748,009161,003856,0,0
0000000105,0000020800,025878,-97044,069422,-16739,008086,004156,0,0
0000000106,0000021000,031463,-98369,064768,-16666,006975,004445,0,0
0000000107,0000021200,036923,-99306,059855,-16535,005831,004720,0,0
0000000108,0000021400,042236,-99849,054706,-16339,004662,004983,0,0
0000000109,0000021600,047384,-99999,049341,-16086,003469,005230,0,0
0000000110,0000021800,052347,-99754,043781,-15772,002260,005462,0,0
0000000111,0000022000,057101,-99113,038050,-15402,001037,005675,0,0
0000000112,0000022200,061633,-98085,032169,-14972,-00192,005871,0,0
0000000113,0000022400,065921,-96669,026160,-14490,-01428,006048,0,0
0000000114,0000022600,069946,-94868,020048,-13953,-02661,006206,0,0
0000000115,0000022800,073700,-92696,013856,-13364,-03888,006347,0,0
0000000116,0000023000,077161,-90159,007609,-12729,-05103,006466,0,0
0000000117,0000023200,080316,-87263,001334,-12049,-06305,006563,0,0
0000000118,0000023400,083158,-84025,-04948,-11322,-07483,006640,0,0
0000000119,0000023600,085672,-80455,-11211,-10556,-08637,006695,0,0
0000000120,0000023800,087845,-76567,-17427,-09751,-09760,006728,0,0
0000000121,0000024000,089676,-72377,-23576,-08914,-10849,006740,0,0
0000000122,0000024200,091150,-67900,-29631,-08045,-11899,006728,0,0
0000000123,0000024400,092264,-63157,-35573,-07147,-12906,006698,0,0
0000000124,0000024600,093018,-58164,-41371,-06226,-13867,006643,0,0
0000000125,0000024800,093403,-52940,-47005,-05286,-14777,006566,0,0
0000000126,0000025000,093421,-47511,-52455,-04327,-15631,006469,0,0
0000000127,0000025200,093067,-41889,-57698,-03357,-16431,006353,0,0
0000000128,0000025400,092350,-36106,-62712,-02374,-17169,006212,0,0
0000000129,0000025600,091266,-30179,-67482,-01389,-17844,006057,0,0
0000000130,0000025800,089826,-24134,-71983,-00403,-18451,005880,0,0
0000000131,0000026000,088028,-17993,-76201,000582,-18988,005685,0,0
0000000132,0000026200,085886,-11780,-80116,001558,-19458,005471,0,0
0000000133,0000026400,083402,-05521,-83717,002526,-19852,005239,0,0
0000000134,0000026600,080591,000759,-86986,003481,-20172,004992,0,0
0000000135,0000026800,077463,007036,-89912,004415,-20420,004732,0,0
0000000136,0000027000,074030,013287,-92485,005331,-20587,004458,0,0
0000000137,0000027200,070303,019482,-94692,006219,-20679,004168,0,0
0000000138,0000027400,066299,025604,-96526,007079,-20694,003869,0,0
0000000139,0000027600,062036,031622,-97978,007909,-20633,003557,0,0
0000000140,0000027800,057526,037518,-99043,008703,-20493,003237,0,0
0000000141,0000028000,052792,043264,-99718,009457,-20273,002910,0,0
0000000142,0000028200,047848,048840,-99999,010171,-19980,002575,0,0
0000000143,0000028400,042715,054220,-99886,010839,-19614,002236,0,0
0000000144,0000028600,037414,059390,-99376,011462,-19171,001891,0,0
0000000145,0000028800,031967,064325,-98479,012032,-18659,001543,0,0
0000000146,0000029000,026394,069006,-97188,012554,-18079,001195,0,0
0000000147,0000029200,020718,073413,-95515,013021,-17429,000844,0,0
0000000148,0000029400,014959,077533,-93468,013433,-16715,000499,0,0
0000000149,0000029600,009142,081345,-91051,013790,-15940,000155,0,0
0000000150,0000029800,003289,084836,-88274,014086,-15103,-00186,0,0
0000000151,0000030000,-02576,087995,-85149,014321,-14215,-00522,0,0
0000000152,0000030200,-08432,090802,-81685,014498,-13272,-00848,0,0
0000000153,0000030400,-14252,093256,-77901,014614,-12280,-01169,0,0
0000000154,0000030600,-20017,095337,-73811,014666,-11246,-01480,0,0
0000000155,0000030800,-25702,097043,-69426,014657,-10172,-01782,0,0
0000000156,0000031000,-31287,098368,-64772,014587,-09061,-02069,0,0
0000000157,0000031200,-36747,099305,-59859,014452,-07916,-02347,0,0
0000000158,0000031400,-42063,099848,-54710,014260,-06748,-02606,0,0
0000000159,0000031600,-47211,099997,-49345,014004,-05554,-02853,0,0
0000000160,0000031800,-52171,099753,-43785,013692,-04346,-03085,0,0
0000000161,0000032000,-56928,099112,-38054,013320,-03122,-03299,0,0
0000000162,0000032200,-61457,098084,-32173,012890,-01892,-03497,0,0
0000000163,0000032400,-65745,096668,-26164,012408,-00656,-03674,0,0
0000000164,0000032600,-69773,094867,-20052,011871,000576,-03833,0,0
0000000165,0000032800,-73524,092694,-13860,011285,001803,-03970,0,0
0000000166,0000033000,-76985,090158,-07613,010647,003017,-04089,0,0
0000000167,0000033200,-80143,087262,-01338,009966,004220,-04187,0,0
0000000168,0000033400,-82985,084024,004944,009240,005398,-04263,0,0
0000000169,0000033600,-85496,080454,011207,008474,006551,-04318,0,0
0000000170,0000033800,-87672,076566,017423,007671,007674,-04352,0,0
0000000171,0000034000,-89500,072376,023572,006832,008764,-04364,0,0
0000000172,0000034200,-90974,067899,029627,005962,009814,-04355,0,0
0000000173,0000034400,-92091,063156,035569,005065,010821,-04321,0,0
0000000174,0000034600,-92842,058163,041367,004143,011782,-04266,0,0
0000000175,0000034800,-93230,052939,047001,003203,012691,-04190,0,0
0000000176,0000035000,-93245,047509,052451,002245,013546,-04096,0,0
0000000177,0000035200,-92894,041888,057694,001275,014346,-03977,0,0
0000000178,0000035400,-92174,036105,062708,000295,015084,-03839,0,0
0000000179,0000035600,-91093,030178,067478,-00690,015755,-03680,0,0
0000000180,0000035800,-89650,024133,071979,-01678,016366,-03503,0,0
0000000181,0000036000,-87852,017992,076197,-02661,016903,-03308,0,0
0000000182,0000036200,-85710,011779,080112,-03641,017373,-03095,0,0
0000000183,0000036400,-83229,005520,083713,-04608,017767,-02866,0,0
0000000184,0000036600,-80418,-00760,086982,-05560,018087,-02618,0,0
0000000185,0000036800,-77287,-07038,089908,-06497,018334,-02356,0,0
0000000186,0000037000,-73854,-13288,092481,-07413,018502,-02081,0,0
0000000187,0000037200,-70127,-19483,094687,-08301,018594,-01794,0,0
0000000188,0000037400,-66127,-25605,096522,-09162,018609,-01492,0,0
0000000189,0000037600,-61860,-31623,097974,-09989,018545,-01181,0,0
0000000190,0000037800,-57353,-37519,099039,-10782,018407,-00864,0,0
0000000191,0000038000,-52616,-43265,099714,-11539,018188,-00534,0,0
0000000192,0000038200,-47672,-48841,099994,-12250,017895,-00198,0,0
0000000193,0000038400,-42542,-54221,099882,-12921,017529,000139,0,0
0000000194,0000038600,-37241,-59391,099372,-13541,017086,000484,0,0
0000000195,0000038800,-31794,-64326,098475,-14115,016573,000832,0,0
0000000196,0000039000,-26221,-69007,097184,-14636,015994,001180,0,0
0000000197,0000039200,-20542,-73414,095511,-15103,015343,001528,0,0
0000000198,0000039400,-14783,-77534,093464,-15515,014629,001876,0,0
0000000199,0000039600,-08966,-81346,091047,-15869,013854,002221,0,0
0000000200,0000039800,-03113,-84837,088270,-16165,013018,002559,0,0
0000000201,0000040000,002752,-87996,085145,-16403,012127,002895,0,0
0000000202,0000040200,008605,-90803,081681,-16580,011187,003225,0,0
0000000203,0000040400,014428,-93257,077897,-16693,010195,003545,0,0
0000000204,0000040600,020193,-95338,073807,-16748,009161,003856,0,0
0000000205,0000040800,025878,-97044,069422,-16739,008086,004156,0,0
0000000206,0000041000,031463,-98369,064768,-16666,006975,004445,0,0
0000000207,0000041200,036923,-99306,059855,-16535,005831,004720,0,0
0000000208,0000041400,042236,-99849,054706,-16339,004662,004983,0,0
0000000209,0000041600,047384,-99999,049341,-16086,003469,005230,0,0
0000000210,0000041800,052347,-99754,043781,-15772,002260,005462,0,0
0000000211,0000042000,057101,-99113,038050,-15402,001037,005675,0,0
0000000212,0000042200,061633,-98085,032169,-14972,-00192,005871,0,0
0000000213,0000042400,065921,-96669,026160,-14490,-01428,006048,0,0
0000000214,0000042600,069946,-94868,020048,-13953,-02661,006206,0,0
0000000215,0000042800,073700,-92696,013856,-13364,-03888,006347,0,0
0000000216,0000043000,077161,-90159,007609,-12729,-05103,006466,0,0
0000000217,0000043200,080316,-87263,001334,-12049,-06305,006563,0,0
0000000218,0000043400,083158,-84025,-04948,-11322,-07483,006640,0,0
0000000219,0000043600,085672,-80455,-11211,-10556,-08637,006695,0,0
0000000220,0000043800,087845,-76567,-17427,-09751,-09760,006728,0,0
0000000221,0000044000,089676,-72377,-23576,-08914,-10849,006740,0,0
0000000222,0000044200,091150,-67900,-29631,-08045,-11899,006728,0,0
0000000223,0000044400,092264,-63157,-35573,-07147,-12906,006698,0,0
0000000224,0000044600,093018,-58164,-41371,-06226,-13867,006643,0,0
0000000225,0000044800,093403,-52940,-47005,-05286,-14777,006566,0,0
0000000226,0000045000,093421,-47511,-52455,-04327,-15631,006469,0,0
0000000227,0000045200,093067,-41889,-57698,-03357,-16431,006353,0,0
0000000228,0000045400,092350,-36106,-62712,-02374,-17169,006212,0,0
0000000229,0000045600,091266,-30179,-67482,-01389,-17844,006057,0,0
0000000230,0000045800,089826,-24134,-71983,-00403,-18451,005880,0,0
0000000231,0000046000,088028,-17993,-76201,000582,-18988,005685,0,0
0000000232,0000046200,085886,-11780,-80116,001558,-19458,005471,0,0
0000000233,0000046400,083402,-05521,-83717,002526,-19852,005239,0,0
0000000234,0000046600,080591,000759,-86986,003481,-20172,004992,0,0
0000000235,0000046800,077463,007036,-89912,004415,-20420,004732,0,0
0000000236,0000047000,074030,013287,-92485,005331,-20587,004458,0,0
0000000237,0000047200,070303,019482,-94692,006219,-20679,004168,0,0
0000000238,0000047400,066299,025604,-96526,007079,-20694,003869,0,0
0000000239,0000047600,062036,031622,-97978,007909,-20633,003557,0,0
0000000240,0000047800,057526,037518,-99043,008703,-20493,003237,0,0
0000000241,0000048000,052792,043264,-99718,009457,-20273,002910,0,0
0000000242,0000048200,047848,048840,-99999,010171,-19980,002575,0,0
0000000243,0000048400,042715,054220,-99886,010839,-19614,002236,0,0
0000000244,0000048600,037414,059390,-99376,011462,-19171,001891,0,0
0000000245,0000048800,031967,064325,-98479,012032,-18659,001543,0,0
0000000246,0000049000,026394,069006,-97188,012554,-18079,001195,0,0
0000000247,0000049200,020718,073413,-95515,013021,-17429,000844,0,0
0000000248,0000049400,014959,077533,-93468,013433,-16715,000499,0,0
0000000249,0000049600,009142,081345,-91051,013790,-15940,000155,0,0
0000000250,0000049800,003289,084836,-88274,014086,-15103,-00186,0,0
0000000251,0000050000,-02576,087995,-85149,014321,-14215,-00522,0,0
0000000252,0000050200,-08432,090802,-81685,014498,-13272,-00848,0,0
0000000253,0000050400,-14252,093256,-77901,014614,-12280,-01169,0,0
0000000254,0000050600,-20017,095337,-73811,014666,-11246,-01480,0,0
0000000255,0000050800,-25702,097043,-69426,014657,-10172,-01782,0,0
0000000256,0000051000,-31287,098368,-64772,014587,-09061,-02069,0,0
0000000257,0000051200,-36747,099305,-59859,014452,-07916,-02347,0,0
0000000258,0000051400,-42063,099848,-54710,014260,-06748,-02606,0,0
0000000259,0000051600,-47211,099997,-49345,014004,-05554,-02853,0,0
0000000260,0000051800,-52171,099753,-43785,013692,-04346,-03085,0,0
0000000261,0000052000,-56928,099112,-38054,013320,-03122,-03299,0,0
0000000262,0000052200,-61457,098084,-32173,012890,-01892,-03497,0,0
0000000263,0000052400,-65745,096668,-26164,012408,-00656,-03674,0,0
0000000264,0000052600,-69773,094867,-20052,011871,000576,-03833,0,0
0000000265,0000052800,-73524,092694,-13860,011285,001803,-03970,0,0
0000000266,0000053000,-76985,090158,-07613,010647,003017,-04089,0,0
0000000267,0000053200,-80143,087262,-01338,009966,004220,-04187,0,0
0000000268,0000053400,-82985,084024,004944,009240,005398,-04263,0,0
0000000269,0000053600,-85496,080454,011207,008474,006551,-04318,0,0
0000000270,0000053800,-87672,076566,017423,007671,007674,-04352,0,0
0000000271,0000054000,-89500,072376,023572,006832,008764,-04364,0,0
0000000272,0000054200,-90974,067899,029627,005962,009814,-04355,0,0
0000000273,0000054400,-92091,063156,035569,005065,010821,-04321,0,0
0000000274,0000054600,-92842,058163,041367,004143,011782,-04266,0,0
0000000275,0000054800,-93230,052939,047001,003203,012691,-04190,0,0
0000000276,0000055000,-93245,047509,052451,002245,013546,-04096,0,0
0000000277,0000055200,-92894,041888,057694,001275,014346,-03977,0,0
0000000278,0000055400,-92174,036105,062708,000295,015084,-03839,0,0
0000000279,0000055600,-91093,030178,067478,-00690,015755,-03680,0,0
0000000280,0000055800,-89650,024133,071979,-01678,016366,-03503,0,0
