DOL,DOL_150_LI1_NPA_F1,1999
40,7A,33D
1,I L1,,1,A,2.304100e-002,0.000000e+000,0.000000e+000,-1118,889,6.000000e+002,5.000000e+000,S
2,I L2,,2,A,2.304100e-002,0.000000e+000,0.000000e+000,-29,27,6.000000e+002,5.000000e+000,S
3,I L3,,3,A,2.304100e-002,0.000000e+000,0.000000e+000,-51,37,6.000000e+002,5.000000e+000,S
4,I LN,,4,A,2.304100e-002,0.000000e+000,0.000000e+000,-930,1190,6.000000e+002,5.000000e+000,S
5,V L1E,,5,V,9.434000e-003,0.000000e+000,0.000000e+000,-10706,9588,1.500000e+005,1.000000e+002,S
6,V L2E,,6,V,9.434000e-003,0.000000e+000,0.000000e+000,-9347,9215,1.500000e+005,1.000000e+002,S
7,V L3E,,7,V,9.434000e-003,0.000000e+000,0.000000e+000,-9192,9209,1.500000e+005,1.000000e+002,S
1,SOF O/CpickupL1,,4282,0
2,SOF O/CpickupL2,,4283,0
3,SOF O/CpickupL3,,4284,0
4,Power Swing,,4164,0
5,>DisTel Rec.Ch1,,4006,0
6,Dis.T.SEND,,4056,0
7,Dis.PICKUP,,3671,0
8,Dis.Gen. Trip,,3801,0
9,>EF Rec.Ch1,,1318,0
10,EF Pickup,,1345,0
11,EF Trip,,1361,0
12,EF Tele SEND,,1384,0
13,>CB Aux. L1,,351,1
14,>CB Aux. L2,,352,1
15,>CB Aux. L3,,353,1
16,>CB1 Ready,,371,1
17,Relay PICKUP,,501,0
18,Relay TRIP L1,,507,0
19,Relay TRIP L2,,508,0
20,Relay TRIP L3,,509,0
21,Relay TRIP,,511,0
22,>Manual Close,,356,0
23,>FAIL:Feeder VT,,361,0
24,>AR block,,2703,0
25,AR in progress,,2801,0
26,AR CLOSE Cmd.,,2851,0
27,>FAIL:Usy2 VT,,362,0
28,Sync.Tsup.Exp,,2935,0
29,Sync.CloseCmd,,2961,0
30,BF T2-TRIP(bus),,1494,0
31,AR is blocked,,2783,0
32,!!SIGNIFICADO NO REGISTRADO!!,,,0
33,!!SIGNIFICADO NO REGISTRADO!!,,,0
50.0
1
1000.000,3000
15/03/2022, 06:19:58.102000
15/03/2022, 06:19:58.402000
ASCII
1.0
1,0,-9,15,-7,0,-1517,-7006,8531,0,0,0,0,0,0,0,0,0,0,0,0,1,1,1,1,0,0,0,0,0,0,0,0,0,0,0,0,0,0,0,0,0
2,0,-11,14,-2,0,1286,-8486,7035,0,0,0,0,0,0,0,0,0,0,0,0,1,1,1,1,0,0,0,0,0,0,0,0,0,0,0,0,0,0,0,0,0
3,0,-13,11,3,1,3937,-9156,4976,0,0,0,0,0,0,0,0,0,0,0,0,1,1,1,1,0,0,0,0,0,0,0,0,0,0,0,0,0,0,0,0,0
4,0,-14,7,7,0,6344,-8865,2477,0,0,0,0,0,0,0,0,0,0,0,0,1,1,1,1,0,0,0,0,0,0,0,0,0,0,0,0,0,0,0,0,0
5,0,-13,2,11,1,8066,-7622,-340,0,0,0,0,0,0,0,0,0,0,0,0,1,1,1,1,0,0,0,0,0,0,0,0,0,0,0,0,0,0,0,0,0
6,0,-10,-3,14,1,9019,-5699,-3065,0,0,0,0,0,0,0,0,0,0,0,0,1,1,1,1,0,0,0,0,0,0,0,0,0,0,0,0,0,0,0,0,0
7,0,-7,-7,14,1,9049,-3349,-5602,0,0,0,0,0,0,0,0,0,0,0,0,1,1,1,1,0,0,0,0,0,0,0,0,0,0,0,0,0,0,0,0,0
8,0,-4,-10,14,1,8108,-581,-7573,0,0,0,0,0,0,0,0,0,0,0,0,1,1,1,1,0,0,0,0,0,0,0,0,0,0,0,0,0,0,0,0,0
9,0,1,-13,12,0,6365,2189,-8789,0,0,0,0,0,0,0,0,0,0,0,0,1,1,1,1,0,0,0,0,0,0,0,0,0,0,0,0,0,0,0,0,0
10,0,6,-16,9,0,4129,4829,-9142,0,0,0,0,0,0,0,0,0,0,0,0,1,1,1,1,0,0,0,0,0,0,0,0,0,0,0,0,0,0,0,0,0
11,0,9,-15,6,0,1485,7020,-8513,0,0,0,0,0,0,0,0,0,0,0,0,1,1,1,1,0,0,0,0,0,0,0,0,0,0,0,0,0,0,0,0,0
12,0,12,-13,0,0,-1312,8499,-7017,0,0,0,0,0,0,0,0,0,0,0,0,1,1,1,1,0,0,0,0,0,0,0,0,0,0,0,0,0,0,0,0,0
13,0,14,-10,-5,-1,-3962,9157,-4951,0,0,0,0,0,0,0,0,0,0,0,0,1,1,1,1,0,0,0,0,0,0,0,0,0,0,0,0,0,0,0,0,0
14,0,14,-7,-8,-1,-6363,8863,-2455,0,0,0,0,0,0,0,0,0,0,0,0,1,1,1,1,0,0,0,0,0,0,0,0,0,0,0,0,0,0,0,0,0
15,0,13,-2,-12,0,-8075,7600,368,0,0,0,0,0,0,0,0,0,0,0,0,1,1,1,1,0,0,0,0,0,0,0,0,0,0,0,0,0,0,0,0,0
16,0,10,3,-15,0,-9024,5679,3091,0,0,0,0,0,0,0,0,0,0,0,0,1,1,1,1,0,0,0,0,0,0,0,0,0,0,0,0,0,0,0,0,0
17,0,7,8,-16,0,-9045,3321,5625,0,0,0,0,0,0,0,0,0,0,0,0,1,1,1,1,0,0,0,0,0,0,0,0,0,0,0,0,0,0,0,0,0
18,0,4,11,-15,0,-8097,553,7591,0,0,0,0,0,0,0,0,0,0,0,0,1,1,1,1,0,0,0,0,0,0,0,0,0,0,0,0,0,0,0,0,0
19,0,-1,14,-14,0,-6345,-2216,8796,0,0,0,0,0,0,0,0,0,0,0,0,1,1,1,1,0,0,0,0,0,0,0,0,0,0,0,0,0,0,0,0,0
20,0,-6,16,-10,0,-4106,-4852,9143,0,0,0,0,0,0,0,0,0,0,0,0,1,1,1,1,0,0,0,0,0,0,0,0,0,0,0,0,0,0,0,0,0
21,0,-9,16,-7,0,-1458,-7041,8504,0,0,0,0,0,0,0,0,0,0,0,0,1,1,1,1,0,0,0,0,0,0,0,0,0,0,0,0,0,0,0,0,0
22,0,-11,14,-2,1,1340,-8507,6999,0,0,0,0,0,0,0,0,0,0,0,0,1,1,1,1,0,0,0,0,0,0,0,0,0,0,0,0,0,0,0,0,0
23,0,-13,11,4,0,3991,-9161,4929,0,0,0,0,0,0,0,0,0,0,0,0,1,1,1,1,0,0,0,0,0,0,0,0,0,0,0,0,0,0,0,0,0
24,0,-14,7,7,0,6384,-8850,2425,0,0,0,0,0,0,0,0,0,0,0,0,1,1,1,1,0,0,0,0,0,0,0,0,0,0,0,0,0,0,0,0,0
25,0,-13,2,11,0,8090,-7586,-397,0,0,0,0,0,0,0,0,0,0,0,0,1,1,1,1,0,0,0,0,0,0,0,0,0,0,0,0,0,0,0,0,0
26,0,-10,-3,13,1,9030,-5658,-3118,0,0,0,0,0,0,0,0,0,0,0,0,1,1,1,1,0,0,0,0,0,0,0,0,0,0,0,0,0,0,0,0,0
27,0,-7,-8,14,0,9040,-3295,-5651,0,0,0,0,0,0,0,0,0,0,0,0,1,1,1,1,0,0,0,0,0,0,0,0,0,0,0,0,0,0,0,0,0
28,0,-3,-11,14,0,8077,-525,-7602,0,0,0,0,0,0,0,0,0,0,0,0,1,1,1,1,0,0,0,0,0,0,0,0,0,0,0,0,0,0,0,0,0
29,0,2,-14,12,0,6327,2244,-8808,0,0,0,0,0,0,0,0,0,0,0,0,1,1,1,1,0,0,0,0,0,0,0,0,0,0,0,0,0,0,0,0,0
30,0,6,-16,9,-1,4078,4879,-9140,0,0,0,0,0,0,0,0,0,0,0,0,1,1,1,1,0,0,0,0,0,0,0,0,0,0,0,0,0,0,0,0,0
31,0,9,-16,6,-1,1429,7055,-8488,0,0,0,0,0,0,0,0,0,0,0,0,1,1,1,1,0,0,0,0,0,0,0,0,0,0,0,0,0,0,0,0,0
32,0,11,-14,1,-1,-1368,8521,-6981,0,0,0,0,0,0,0,0,0,0,0,0,1,1,1,1,0,0,0,0,0,0,0,0,0,0,0,0,0,0,0,0,0
33,0,14,-10,-5,0,-4015,9161,-4904,0,0,0,0,0,0,0,0,0,0,0,0,1,1,1,1,0,0,0,0,0,0,0,0,0,0,0,0,0,0,0,0,0
34,0,14,-7,-9,0,-6404,8843,-2399,0,0,0,0,0,0,0,0,0,0,0,0,1,1,1,1,0,0,0,0,0,0,0,0,0,0,0,0,0,0,0,0,0
35,0,13,-2,-12,0,-8100,7567,423,0,0,0,0,0,0,0,0,0,0,0,0,1,1,1,1,0,0,0,0,0,0,0,0,0,0,0,0,0,0,0,0,0
36,0,11,4,-15,0,-9034,5636,3142,0,0,0,0,0,0,0,0,0,0,0,0,1,1,1,1,0,0,0,0,0,0,0,0,0,0,0,0,0,0,0,0,0
37,0,7,8,-16,0,-9035,3269,5671,0,0,0,0,0,0,0,0,0,0,0,0,1,1,1,1,0,0,0,0,0,0,0,0,0,0,0,0,0,0,0,0,0
38,0,3,11,-15,0,-8067,497,7620,0,0,0,0,0,0,0,0,0,0,0,0,1,1,1,1,0,0,0,0,0,0,0,0,0,0,0,0,0,0,0,0,0
39,0,-2,14,-13,1,-6307,-2267,8813,0,0,0,0,0,0,0,0,0,0,0,0,1,1,1,1,0,0,0,0,0,0,0,0,0,0,0,0,0,0,0,0,0
40,0,-6,16,-10,1,-4057,-4904,9142,0,0,0,0,0,0,0,0,0,0,0,0,1,1,1,1,0,0,0,0,0,0,0,0,0,0,0,0,0,0,0,0,0
41,0,-9,16,-6,1,-1402,-7076,8482,0,0,0,0,0,0,0,0,0,0,0,0,1,1,1,1,0,0,0,0,0,0,0,0,0,0,0,0,0,0,0,0,0
42,0,-12,14,-2,0,1393,-8529,6963,0,0,0,0,0,0,0,0,0,0,0,0,1,1,1,1,0,0,0,0,0,0,0,0,0,0,0,0,0,0,0,0,0
43,0,-13,10,3,0,4043,-9166,4883,0,0,0,0,0,0,0,0,0,0,0,0,1,1,1,1,0,0,0,0,0,0,0,0,0,0,0,0,0,0,0,0,0
44,0,-14,6,8,1,6425,-8833,2370,0,0,0,0,0,0,0,0,0,0,0,0,1,1,1,1,0,0,0,0,0,0,0,0,0,0,0,0,0,0,0,0,0
45,0,-13,2,11,1,8117,-7550,-455,0,0,0,0,0,0,0,0,0,0,0,0,1,1,1,1,0,0,0,0,0,0,0,0,0,0,0,0,0,0,0,0,0
46,0,-10,-4,14,1,9041,-5616,-3170,0,0,0,0,0,0,0,0,0,0,0,0,1,1,1,1,0,0,0,0,0,0,0,0,0,0,0,0,0,0,0,0,0
47,0,-7,-8,15,0,9029,-3241,-5698,0,0,0,0,0,0,0,0,0,0,0,0,1,1,1,1,0,0,0,0,0,0,0,0,0,0,0,0,0,0,0,0,0
48,0,-3,-11,14,0,8048,-469,-7631,0,0,0,0,0,0,0,0,0,0,0,0,1,1,1,1,0,0,0,0,0,0,0,0,0,0,0,0,0,0,0,0,0
49,0,2,-14,12,0,6287,2298,-8824,0,0,0,0,0,0,0,0,0,0,0,0,1,1,1,1,0,0,0,0,0,0,0,0,0,0,0,0,0,0,0,0,0
50,0,6,-16,9,0,4029,4928,-9133,0,0,0,0,0,0,0,0,0,0,0,0,1,1,1,1,0,0,0,0,0,0,0,0,0,0,0,0,0,0,0,0,0
51,0,9,-15,5,0,1375,7091,-8467,0,0,0,0,0,0,0,0,0,0,0,0,1,1,1,1,0,0,0,0,0,0,0,0,0,0,0,0,0,0,0,0,0
52,0,12,-13,0,-1,-1421,8542,-6943,0,0,0,0,0,0,0,0,0,0,0,0,1,1,1,1,0,0,0,0,0,0,0,0,0,0,0,0,0,0,0,0,0
53,0,14,-10,-5,-1,-4066,9165,-4860,0,0,0,0,0,0,0,0,0,0,0,0,1,1,1,1,0,0,0,0,0,0,0,0,0,0,0,0,0,0,0,0,0
54,0,14,-7,-9,0,-6446,8829,-2346,0,0,0,0,0,0,0,0,0,0,0,0,1,1,1,1,0,0,0,0,0,0,0,0,0,0,0,0,0,0,0,0,0
55,0,13,-2,-12,0,-8127,7532,480,0,0,0,0,0,0,0,0,0,0,0,0,1,1,1,1,0,0,0,0,0,0,0,0,0,0,0,0,0,0,0,0,0
56,0,10,3,-15,0,-9047,5596,3195,0,0,0,0,0,0,0,0,0,0,0,0,1,1,1,1,0,0,0,0,0,0,0,0,0,0,0,0,0,0,0,0,0
57,0,7,7,-16,0,-9023,3213,5719,0,0,0,0,0,0,0,0,0,0,0,0,1,1,1,1,0,0,0,0,0,0,0,0,0,0,0,0,0,0,0,0,0
58,0,4,11,-14,1,-8036,440,7649,0,0,0,0,0,0,0,0,0,0,0,0,1,1,1,1,0,0,0,0,0,0,0,0,0,0,0,0,0,0,0,0,0
59,0,-1,14,-13,1,-6266,-2324,8832,0,0,0,0,0,0,0,0,0,0,0,0,1,1,1,1,0,0,0,0,0,0,0,0,0,0,0,0,0,0,0,0,0
60,0,-6,15,-10,0,-4007,-4953,9136,0,0,0,0,0,0,0,0,0,0,0,0,1,1,1,1,0,0,0,0,0,0,0,0,0,0,0,0,0,0,0,0,0
61,0,-9,15,-6,0,-1346,-7110,8456,0,0,0,0,0,0,0,0,0,0,0,0,1,1,1,1,0,0,0,0,0,0,0,0,0,0,0,0,0,0,0,0,0
62,0,-12,14,-1,0,1446,-8552,6929,0,0,0,0,0,0,0,0,0,0,0,0,1,1,1,1,0,0,0,0,0,0,0,0,0,0,0,0,0,0,0,0,0
63,0,-14,10,3,0,4096,-9169,4836,0,0,0,0,0,0,0,0,0,0,0,0,1,1,1,1,0,0,0,0,0,0,0,0,0,0,0,0,0,0,0,0,0
64,0,-14,7,7,1,6462,-8810,2313,0,0,0,0,0,0,0,0,0,0,0,0,1,1,1,1,0,0,0,0,0,0,0,0,0,0,0,0,0,0,0,0,0
65,0,-13,1,11,1,8145,-7521,-509,0,0,0,0,0,0,0,0,0,0,0,0,1,1,1,1,0,0,0,0,0,0,0,0,0,0,0,0,0,0,0,0,0
66,0,-10,-4,13,1,9048,-5573,-3224,0,0,0,0,0,0,0,0,0,0,0,0,1,1,1,1,0,0,0,0,0,0,0,0,0,0,0,0,0,0,0,0,0
67,0,-7,-8,15,0,9018,-3190,-5741,0,0,0,0,0,0,0,0,0,0,0,0,1,1,1,1,0,0,0,0,0,0,0,0,0,0,0,0,0,0,0,0,0
68,0,-3,-11,14,0,8019,-414,-7661,0,0,0,0,0,0,0,0,0,0,0,0,1,1,1,1,0,0,0,0,0,0,0,0,0,0,0,0,0,0,0,0,0
69,0,2,-14,12,0,6247,2351,-8840,0,0,0,0,0,0,0,0,0,0,0,0,1,1,1,1,0,0,0,0,0,0,0,0,0,0,0,0,0,0,0,0,0
70,0,6,-16,10,0,3980,4977,-9131,0,0,0,0,0,0,0,0,0,0,0,0,1,1,1,1,0,0,0,0,0,0,0,0,0,0,0,0,0,0,0,0,0
71,0,9,-16,6,0,1317,7127,-8443,0,0,0,0,0,0,0,0,0,0,0,0,1,1,1,1,0,0,0,0,0,0,0,0,0,0,0,0,0,0,0,0,0
72,0,12,-14,1,0,-1474,8565,-6910,0,0,0,0,0,0,0,0,0,0,0,0,1,1,1,1,0,0,0,0,0,0,0,0,0,0,0,0,0,0,0,0,0
73,0,14,-10,-5,0,-4117,9166,-4812,0,0,0,0,0,0,0,0,0,0,0,0,1,1,1,1,0,0,0,0,0,0,0,0,0,0,0,0,0,0,0,0,0
74,0,14,-7,-8,0,-6483,8808,-2292,0,0,0,0,0,0,0,0,0,0,0,0,1,1,1,1,0,0,0,0,0,0,0,0,0,0,0,0,0,0,0,0,0
75,0,13,-2,-12,0,-8155,7501,536,0,0,0,0,0,0,0,0,0,0,0,0,1,1,1,1,0,0,0,0,0,0,0,0,0,0,0,0,0,0,0,0,0
76,0,11,4,-15,1,-9053,5549,3249,0,0,0,0,0,0,0,0,0,0,0,0,1,1,1,1,0,0,0,0,0,0,0,0,0,0,0,0,0,0,0,0,0
77,0,8,8,-16,0,-9014,3165,5763,0,0,0,0,0,0,0,0,0,0,0,0,1,1,1,1,0,0,0,0,0,0,0,0,0,0,0,0,0,0,0,0,0
78,0,4,11,-15,1,-8006,383,7680,0,0,0,0,0,0,0,0,0,0,0,0,1,1,1,1,0,0,0,0,0,0,0,0,0,0,0,0,0,0,0,0,0
79,0,-2,14,-13,1,-6229,-2373,8848,0,0,0,0,0,0,0,0,0,0,0,0,1,1,1,1,0,0,0,0,0,0,0,0,0,0,0,0,0,0,0,0,0
80,0,-6,16,-10,0,-3955,-5002,9130,0,0,0,0,0,0,0,0,0,0,0,0,1,1,1,1,0,0,0,0,0,0,0,0,0,0,0,0,0,0,0,0,0
81,0,-9,15,-7,0,-1294,-7141,8434,0,0,0,0,0,0,0,0,0,0,0,0,1,1,1,1,0,0,0,0,0,0,0,0,0,0,0,0,0,0,0,0,0
82,0,-11,14,-1,0,1502,-8576,6893,0,0,0,0,0,0,0,0,0,0,0,0,1,1,1,1,0,0,0,0,0,0,0,0,0,0,0,0,0,0,0,0,0
83,0,-13,10,4,0,4145,-9168,4789,0,0,0,0,0,0,0,0,0,0,0,0,1,1,1,1,0,0,0,0,0,0,0,0,0,0,0,0,0,0,0,0,0
84,0,-13,8,8,0,6505,-8796,2261,0,0,0,0,0,0,0,0,0,0,0,0,1,1,1,1,0,0,0,0,0,0,0,0,0,0,0,0,0,0,0,0,0
85,0,-12,2,11,1,8173,-7488,-564,0,0,0,0,0,0,0,0,0,0,0,0,1,1,1,1,0,0,0,0,0,0,0,0,0,0,0,0,0,0,0,0,0
86,0,-10,-3,13,0,9057,-5528,-3276,0,0,0,0,0,0,0,0,0,0,0,0,1,1,1,1,0,0,0,0,0,0,0,0,0,0,0,0,0,0,0,0,0
87,0,-7,-7,14,0,9005,-3138,-5784,0,0,0,0,0,0,0,0,0,0,0,0,1,1,1,1,0,0,0,0,0,0,0,0,0,0,0,0,0,0,0,0,0
88,0,-3,-11,13,0,7993,-356,-7695,0,0,0,0,0,0,0,0,0,0,0,0,1,1,1,1,0,0,0,0,0,0,0,0,0,0,0,0,0,0,0,0,0
89,0,2,-14,12,0,6206,2404,-8856,0,0,0,0,0,0,0,0,0,0,0,0,1,1,1,1,0,0,0,0,0,0,0,0,0,0,0,0,0,0,0,0,0
90,0,7,-16,9,0,3929,5025,-9122,0,0,0,0,0,0,0,0,0,0,0,0,1,1,1,1,0,0,0,0,0,0,0,0,0,0,0,0,0,0,0,0,0
91,0,9,-16,6,0,1262,7159,-8420,0,0,0,0,0,0,0,0,0,0,0,0,1,1,1,1,0,0,0,0,0,0,0,0,0,0,0,0,0,0,0,0,0
92,0,12,-14,0,-1,-1529,8588,-6874,0,0,0,0,0,0,0,0,0,0,0,0,1,1,1,1,0,0,0,0,0,0,0,0,0,0,0,0,0,0,0,0,0
93,0,14,-10,-5,-1,-4167,9165,-4766,0,0,0,0,0,0,0,0,0,0,0,0,1,1,1,1,0,0,0,0,0,0,0,0,0,0,0,0,0,0,0,0,0
94,0,14,-6,-9,0,-6523,8792,-2238,0,0,0,0,0,0,0,0,0,0,0,0,1,1,1,1,0,0,0,0,0,0,0,0,0,0,0,0,0,0,0,0,0
95,0,13,-1,-13,0,-8183,7467,592,0,0,0,0,0,0,0,0,0,0,0,0,1,1,1,1,0,0,0,0,0,0,0,0,0,0,0,0,0,0,0,0,0
96,0,10,4,-16,0,-9064,5508,3302,0,0,0,0,0,0,0,0,0,0,0,0,1,1,1,1,0,0,0,0,0,0,0,0,0,0,0,0,0,0,0,0,0
97,0,8,8,-16,0,-8999,3110,5805,0,0,0,0,0,0,0,0,0,0,0,0,1,1,1,1,0,0,0,0,0,0,0,0,0,0,0,0,0,0,0,0,0
98,0,3,11,-15,1,-7981,328,7712,0,0,0,0,0,0,0,0,0,0,0,0,1,1,1,1,0,0,0,0,0,0,0,0,0,0,0,0,0,0,0,0,0
99,0,-2,14,-13,0,-6186,-2430,8862,0,0,0,0,0,0,0,0,0,0,0,0,1,1,1,1,0,0,0,0,0,0,0,0,0,0,0,0,0,0,0,0,0
100,0,-6,17,-10,1,-3907,-5050,9126,0,0,0,0,0,0,0,0,0,0,0,0,1,1,1,1,0,0,0,0,0,0,0,0,0,0,0,0,0,0,0,0,0
101,0,-10,16,-6,0,-1236,-7179,8411,0,0,0,0,0,0,0,0,0,0,0,0,1,1,1,1,0,0,0,0,0,0,0,0,0,0,0,0,0,0,0,0,0
102,0,-12,14,-2,1,1557,-8598,6855,0,0,0,0,0,0,0,0,0,0,0,0,1,1,1,1,0,0,0,0,0,0,0,0,0,0,0,0,0,0,0,0,0
103,0,-14,10,4,0,4198,-9169,4741,0,0,0,0,0,0,0,0,0,0,0,0,1,1,1,1,0,0,0,0,0,0,0,0,0,0,0,0,0,0,0,0,0
104,0,-14,7,8,0,6543,-8777,2205,0,0,0,0,0,0,0,0,0,0,0,0,1,1,1,1,0,0,0,0,0,0,0,0,0,0,0,0,0,0,0,0,0
105,0,-12,2,12,0,8199,-7455,-620,0,0,0,0,0,0,0,0,0,0,0,0,1,1,1,1,0,0,0,0,0,0,0,0,0,0,0,0,0,0,0,0,0
106,0,-10,-4,14,0,9063,-5484,-3329,0,0,0,0,0,0,0,0,0,0,0,0,1,1,1,1,0,0,0,0,0,0,0,0,0,0,0,0,0,0,0,0,0
107,0,-7,-8,15,1,8995,-3086,-5829,0,0,0,0,0,0,0,0,0,0,0,0,1,1,1,1,0,0,0,0,0,0,0,0,0,0,0,0,0,0,0,0,0
108,0,-3,-12,14,0,7965,-301,-7726,0,0,0,0,0,0,0,0,0,0,0,0,1,1,1,1,0,0,0,0,0,0,0,0,0,0,0,0,0,0,0,0,0
109,0,2,-15,12,0,6164,2458,-8869,0,0,0,0,0,0,0,0,0,0,0,0,1,1,1,1,0,0,0,0,0,0,0,0,0,0,0,0,0,0,0,0,0
110,0,6,-16,9,0,3880,5075,-9119,0,0,0,0,0,0,0,0,0,0,0,0,1,1,1,1,0,0,0,0,0,0,0,0,0,0,0,0,0,0,0,0,0
111,0,9,-15,5,0,1206,7196,-8396,0,0,0,0,0,0,0,0,0,0,0,0,1,1,1,1,0,0,0,0,0,0,0,0,0,0,0,0,0,0,0,0,0
112,0,12,-13,0,0,-1582,8608,-6835,0,0,0,0,0,0,0,0,0,0,0,0,1,1,1,1,0,0,0,0,0,0,0,0,0,0,0,0,0,0,0,0,0
113,0,14,-9,-5,0,-4219,9169,-4719,0,0,0,0,0,0,0,0,0,0,0,0,1,1,1,1,0,0,0,0,0,0,0,0,0,0,0,0,0,0,0,0,0
114,0,14,-7,-9,0,-6563,8772,-2181,0,0,0,0,0,0,0,0,0,0,0,0,1,1,1,1,0,0,0,0,0,0,0,0,0,0,0,0,0,0,0,0,0
115,0,14,-1,-13,0,-8209,7436,647,0,0,0,0,0,0,0,0,0,0,0,0,1,1,1,1,0,0,0,0,0,0,0,0,0,0,0,0,0,0,0,0,0
116,0,11,4,-15,0,-9068,5460,3355,0,0,0,0,0,0,0,0,0,0,0,0,1,1,1,1,0,0,0,0,0,0,0,0,0,0,0,0,0,0,0,0,0
117,0,8,8,-15,0,-8987,3061,5848,0,0,0,0,0,0,0,0,0,0,0,0,1,1,1,1,0,0,0,0,0,0,0,0,0,0,0,0,0,0,0,0,0
118,0,3,11,-14,1,-7954,272,7745,0,0,0,0,0,0,0,0,0,0,0,0,1,1,1,1,0,0,0,0,0,0,0,0,0,0,0,0,0,0,0,0,0
119,0,-2,14,-12,0,-6144,-2482,8874,0,0,0,0,0,0,0,0,0,0,0,0,1,1,1,1,0,0,0,0,0,0,0,0,0,0,0,0,0,0,0,0,0
120,0,-6,15,-9,1,-3858,-5097,9119,0,0,0,0,0,0,0,0,0,0,0,0,1,1,1,1,0,0,0,0,0,0,0,0,0,0,0,0,0,0,0,0,0
121,0,-9,16,-5,1,-1180,-7215,8389,0,0,0,0,0,0,0,0,0,0,0,0,1,1,1,1,0,0,0,0,0,0,0,0,0,0,0,0,0,0,0,0,0
122,0,-12,13,-1,1,1609,-8617,6818,0,0,0,0,0,0,0,0,0,0,0,0,1,1,1,1,0,0,0,0,0,0,0,0,0,0,0,0,0,0,0,0,0
123,0,-14,10,4,1,4247,-9167,4694,0,0,0,0,0,0,0,0,0,0,0,0,1,1,1,1,0,0,0,0,0,0,0,0,0,0,0,0,0,0,0,0,0
124,0,-14,7,7,1,6583,-8761,2153,0,0,0,0,0,0,0,0,0,0,0,0,1,1,1,1,0,0,0,0,0,0,0,0,0,0,0,0,0,0,0,0,0
125,0,-13,2,11,1,8227,-7420,-678,0,0,0,0,0,0,0,0,0,0,0,0,1,1,1,1,0,0,0,0,0,0,0,0,0,0,0,0,0,0,0,0,0
126,0,-9,-4,14,1,9072,-5442,-3380,0,0,0,0,0,0,0,0,0,0,0,0,1,1,1,1,0,0,0,0,0,0,0,0,0,0,0,0,0,0,0,0,0
127,0,-7,-8,15,0,8985,-3036,-5873,0,0,0,0,0,0,0,0,0,0,0,0,1,1,1,1,0,0,0,0,0,0,0,0,0,0,0,0,0,0,0,0,0
128,0,-2,-11,14,0,7933,-243,-7755,0,0,0,0,0,0,0,0,0,0,0,0,1,1,1,1,0,0,0,0,0,0,0,0,0,0,0,0,0,0,0,0,0
129,0,2,-14,12,0,6125,2511,-8885,0,0,0,0,0,0,0,0,0,0,0,0,1,1,1,1,0,0,0,0,0,0,0,0,0,0,0,0,0,0,0,0,0
130,0,7,-16,9,0,3828,5125,-9114,0,0,0,0,0,0,0,0,0,0,0,0,1,1,1,1,0,0,0,0,0,0,0,0,0,0,0,0,0,0,0,0,0
131,0,9,-15,5,0,1152,7227,-8372,0,0,0,0,0,0,0,0,0,0,0,0,1,1,1,1,0,0,0,0,0,0,0,0,0,0,0,0,0,0,0,0,0
132,0,12,-14,1,0,-1636,8630,-6798,0,0,0,0,0,0,0,0,0,0,0,0,1,1,1,1,0,0,0,0,0,0,0,0,0,0,0,0,0,0,0,0,0
133,0,14,-10,-5,-1,-4270,9166,-4670,0,0,0,0,0,0,0,0,0,0,0,0,1,1,1,1,0,0,0,0,0,0,0,0,0,0,0,0,0,0,0,0,0
134,0,15,-7,-8,-1,-6605,8759,-2128,0,0,0,0,0,0,0,0,0,0,0,0,1,1,1,1,0,0,0,0,0,0,0,0,0,0,0,0,0,0,0,0,0
135,0,14,-2,-12,0,-8234,7399,703,0,0,0,0,0,0,0,0,0,0,0,0,1,1,1,1,0,0,0,0,0,0,0,0,0,0,0,0,0,0,0,0,0
136,0,10,3,-15,-1,-9077,5420,3404,0,0,0,0,0,0,0,0,0,0,0,0,1,1,1,1,0,0,0,0,0,0,0,0,0,0,0,0,0,0,0,0,0
137,0,8,8,-15,0,-8976,3003,5896,0,0,0,0,0,0,0,0,0,0,0,0,1,1,1,1,0,0,0,0,0,0,0,0,0,0,0,0,0,0,0,0,0
138,0,3,11,-15,0,-7924,216,7774,0,0,0,0,0,0,0,0,0,0,0,0,1,1,1,1,0,0,0,0,0,0,0,0,0,0,0,0,0,0,0,0,0
139,0,-2,14,-13,0,-6103,-2537,8890,0,0,0,0,0,0,0,0,0,0,0,0,1,1,1,1,0,0,0,0,0,0,0,0,0,0,0,0,0,0,0,0,0
140,0,-6,15,-10,0,-3808,-5146,9112,0,0,0,0,0,0,0,0,0,0,0,0,1,1,1,1,0,0,0,0,0,0,0,0,0,0,0,0,0,0,0,0,0
141,0,-9,15,-7,0,-1124,-7251,8365,0,0,0,0,0,0,0,0,0,0,0,0,1,1,1,1,0,0,0,0,0,0,0,0,0,0,0,0,0,0,0,0,0
142,0,-12,13,-2,0,1665,-8637,6778,0,0,0,0,0,0,0,0,0,0,0,0,1,1,1,1,0,0,0,0,0,0,0,0,0,0,0,0,0,0,0,0,0
143,0,-14,10,4,0,4299,-9171,4650,0,0,0,0,0,0,0,0,0,0,0,0,1,1,1,1,0,0,0,0,0,0,0,0,0,0,0,0,0,0,0,0,0
144,0,-14,7,7,0,6624,-8745,2097,0,0,0,0,0,0,0,0,0,0,0,0,1,1,1,1,0,0,0,0,0,0,0,0,0,0,0,0,0,0,0,0,0
145,0,-13,2,11,0,8251,-7384,-735,0,0,0,0,0,0,0,0,0,0,0,0,1,1,1,1,0,0,0,0,0,0,0,0,0,0,0,0,0,0,0,0,0
146,0,-10,-4,14,0,9077,-5396,-3433,0,0,0,0,0,0,0,0,0,0,0,0,1,1,1,1,0,0,0,0,0,0,0,0,0,0,0,0,0,0,0,0,0
147,0,-7,-8,14,0,8974,-2981,-5921,0,0,0,0,0,0,0,0,0,0,0,0,1,1,1,1,0,0,0,0,0,0,0,0,0,0,0,0,0,0,0,0,0
148,0,-2,-11,13,0,7903,-188,-7783,0,0,0,0,0,0,0,0,0,0,0,0,1,1,1,1,0,0,0,0,0,0,0,0,0,0,0,0,0,0,0,0,0
149,0,3,-14,12,0,6081,2565,-8897,0,0,0,0,0,0,0,0,0,0,0,0,1,1,1,1,0,0,0,0,0,0,0,0,0,0,0,0,0,0,0,0,0
150,0,7,-16,10,0,3781,5170,-9108,0,0,0,0,0,0,0,0,0,0,0,0,1,1,1,1,0,0,0,0,0,0,0,0,0,0,0,0,0,0,0,0,0
151,0,10,-16,6,0,1094,7270,-8351,0,0,0,0,0,0,0,0,0,0,0,0,1,1,1,1,0,0,0,0,0,0,0,0,0,0,0,0,0,0,0,0,0
152,0,13,-14,1,0,-1691,8646,-6757,0,0,0,0,0,0,0,0,0,0,0,0,1,1,1,1,0,0,0,0,0,0,0,0,0,0,0,0,0,0,0,0,0
153,0,14,-10,-6,-1,-4322,9169,-4624,0,0,0,0,0,0,0,0,0,0,0,0,1,1,1,1,0,0,0,0,0,0,0,0,0,0,0,0,0,0,0,0,0
154,0,15,-7,-9,0,-6645,8737,-2071,0,0,0,0,0,0,0,0,0,0,0,0,1,1,1,1,0,0,0,0,0,0,0,0,0,0,0,0,0,0,0,0,0
155,0,14,-2,-13,-1,-8258,7364,760,0,0,0,0,0,0,0,0,0,0,0,0,1,1,1,1,0,0,0,0,0,0,0,0,0,0,0,0,0,0,0,0,0
156,0,11,4,-15,0,-9082,5376,3456,0,0,0,0,0,0,0,0,0,0,0,0,1,1,1,1,0,0,0,0,0,0,0,0,0,0,0,0,0,0,0,0,0
157,0,8,8,-17,0,-8964,2951,5939,0,0,0,0,0,0,0,0,0,0,0,0,1,1,1,1,0,0,0,0,0,0,0,0,0,0,0,0,0,0,0,0,0
158,0,3,11,-15,-1,-7894,158,7805,0,0,0,0,0,0,0,0,0,0,0,0,1,1,1,1,0,0,0,0,0,0,0,0,0,0,0,0,0,0,0,0,0
159,0,-2,15,-13,0,-6058,-2591,8901,0,0,0,0,0,0,0,0,0,0,0,0,1,1,1,1,0,0,0,0,0,0,0,0,0,0,0,0,0,0,0,0,0
160,0,-6,17,-10,0,-3759,-5193,9108,0,0,0,0,0,0,0,0,0,0,0,0,1,1,1,1,0,0,0,0,0,0,0,0,0,0,0,0,0,0,0,0,0
161,0,-9,16,-6,0,-1068,-7285,8342,0,0,0,0,0,0,0,0,0,0,0,0,1,1,1,1,0,0,0,0,0,0,0,0,0,0,0,0,0,0,0,0,0
162,0,-12,14,-1,0,1717,-8656,6741,0,0,0,0,0,0,0,0,0,0,0,0,1,1,1,1,0,0,0,0,0,0,0,0,0,0,0,0,0,0,0,0,0
163,0,-14,10,3,0,4351,-9173,4602,0,0,0,0,0,0,0,0,0,0,0,0,1,1,1,1,0,0,0,0,0,0,0,0,0,0,0,0,0,0,0,0,0
164,0,-14,7,7,0,6664,-8727,2043,0,0,0,0,0,0,0,0,0,0,0,0,1,1,1,1,0,0,0,0,0,0,0,0,0,0,0,0,0,0,0,0,0
165,0,-13,1,11,0,8275,-7348,-791,0,0,0,0,0,0,0,0,0,0,0,0,1,1,1,1,0,0,0,0,0,0,0,0,0,0,0,0,0,0,0,0,0
166,0,-10,-4,14,0,9085,-5355,-3484,0,0,0,0,0,0,0,0,0,0,0,0,1,1,1,1,0,0,0,0,0,0,0,0,0,0,0,0,0,0,0,0,0
167,0,-7,-8,15,0,8961,-2927,-5965,0,0,0,0,0,0,0,0,0,0,0,0,1,1,1,1,0,0,0,0,0,0,0,0,0,0,0,0,0,0,0,0,0
168,0,-3,-11,13,0,7873,-133,-7812,0,0,0,0,0,0,0,0,0,0,0,0,1,1,1,1,0,0,0,0,0,0,0,0,0,0,0,0,0,0,0,0,0
169,0,3,-15,12,0,6040,2619,-8910,0,0,0,0,0,0,0,0,0,0,0,0,1,1,1,1,0,0,0,0,0,0,0,0,0,0,0,0,0,0,0,0,0
170,0,7,-16,9,-1,3732,5220,-9104,0,0,0,0,0,0,0,0,0,0,0,0,1,1,1,1,0,0,0,0,0,0,0,0,0,0,0,0,0,0,0,0,0
171,0,9,-16,4,-1,1036,7304,-8325,0,0,0,0,0,0,0,0,0,0,0,0,1,1,1,1,0,0,0,0,0,0,0,0,0,0,0,0,0,0,0,0,0
172,0,12,-14,0,-1,-1743,8665,-6722,0,0,0,0,0,0,0,0,0,0,0,0,1,1,1,1,0,0,0,0,0,0,0,0,0,0,0,0,0,0,0,0,0
173,0,14,-10,-5,-1,-4374,9170,-4577,0,0,0,0,0,0,0,0,0,0,0,0,1,1,1,1,0,0,0,0,0,0,0,0,0,0,0,0,0,0,0,0,0
174,0,15,-6,-9,-1,-6684,8720,-2017,0,0,0,0,0,0,0,0,0,0,0,0,1,1,1,1,0,0,0,0,0,0,0,0,0,0,0,0,0,0,0,0,0
175,0,13,-2,-13,-1,-8284,7328,816,0,0,0,0,0,0,0,0,0,0,0,0,1,1,1,1,0,0,0,0,0,0,0,0,0,0,0,0,0,0,0,0,0
176,0,11,4,-15,-1,-9090,5332,3508,0,0,0,0,0,0,0,0,0,0,0,0,1,1,1,1,0,0,0,0,0,0,0,0,0,0,0,0,0,0,0,0,0
177,0,7,8,-16,-1,-8954,2900,5985,0,0,0,0,0,0,0,0,0,0,0,0,1,1,1,1,0,0,0,0,0,0,0,0,0,0,0,0,0,0,0,0,0
178,0,3,11,-14,0,-7860,99,7833,0,0,0,0,0,0,0,0,0,0,0,0,1,1,1,1,0,0,0,0,0,0,0,0,0,0,0,0,0,0,0,0,0
179,0,-1,14,-12,0,-6018,-2642,8915,0,0,0,0,0,0,0,0,0,0,0,0,1,1,1,1,0,0,0,0,0,0,0,0,0,0,0,0,0,0,0,0,0
180,0,-6,17,-9,0,-3708,-5247,9105,0,0,0,0,0,0,0,0,0,0,0,0,1,1,1,1,0,0,0,0,0,0,0,0,0,0,0,0,0,0,0,0,0
181,0,-9,16,-6,0,-1011,-7318,8313,0,0,0,0,0,0,0,0,0,0,0,0,1,1,1,1,0,0,0,0,0,0,0,0,0,0,0,0,0,0,0,0,0
182,0,-11,14,0,1,1771,-8676,6703,0,0,0,0,0,0,0,0,0,0,0,0,1,1,1,1,0,0,0,0,0,0,0,0,0,0,0,0,0,0,0,0,0
183,0,-14,10,5,1,4402,-9171,4553,0,0,0,0,0,0,0,0,0,0,0,0,1,1,1,1,0,0,0,0,0,0,0,0,0,0,0,0,0,0,0,0,0
184,0,-15,7,8,1,6704,-8708,1987,0,0,0,0,0,0,0,0,0,0,0,0,1,1,1,1,0,0,0,0,0,0,0,0,0,0,0,0,0,0,0,0,0
185,0,-13,2,12,1,8295,-7309,-846,0,0,0,0,0,0,0,0,0,0,0,0,1,1,1,1,0,0,0,0,0,0,0,0,0,0,0,0,0,0,0,0,0
186,0,-10,-4,14,0,9093,-5312,-3535,0,0,0,0,0,0,0,0,0,0,0,0,1,1,1,1,0,0,0,0,0,0,0,0,0,0,0,0,0,0,0,0,0
